 frequency       db(v(Vout))     180*cph(v(Vout))/pi v(Vout)         v(Vout)        
 1.00000000e+00 -1.58662261e-03 -4.66793364e-05  9.99817350e-01 -8.14559307e-07 
 1.12201845e+00 -1.58662262e-03 -5.23750769e-05  9.99817350e-01 -9.13950574e-07 
 1.25892541e+00 -1.58662262e-03 -5.87658028e-05  9.99817350e-01 -1.02546941e-06 
 1.41253754e+00 -1.58662262e-03 -6.59363152e-05  9.99817350e-01 -1.15059560e-06 
 1.58489319e+00 -1.58662262e-03 -7.39817625e-05  9.99817350e-01 -1.29098950e-06 
 1.77827941e+00 -1.58662262e-03 -8.30089028e-05  9.99817350e-01 -1.44851404e-06 
 1.99526231e+00 -1.58662262e-03 -9.31375208e-05  9.99817350e-01 -1.62525949e-06 
 2.23872114e+00 -1.58662262e-03 -1.04502017e-04  9.99817350e-01 -1.82357114e-06 
 2.51188643e+00 -1.58662263e-03 -1.17253192e-04  9.99817350e-01 -2.04608047e-06 
 2.81838293e+00 -1.58662263e-03 -1.31560245e-04  9.99817350e-01 -2.29574005e-06 
 3.16227766e+00 -1.58662264e-03 -1.47613023e-04  9.99817350e-01 -2.57586270e-06 
 3.54813389e+00 -1.58662264e-03 -1.65624536e-04  9.99817350e-01 -2.89016548e-06 
 3.98107171e+00 -1.58662265e-03 -1.85833785e-04  9.99817350e-01 -3.24281901e-06 
 4.46683592e+00 -1.58662266e-03 -2.08508937e-04  9.99817350e-01 -3.63850277e-06 
 5.01187234e+00 -1.58662267e-03 -2.33950875e-04  9.99817350e-01 -4.08246725e-06 
 5.62341325e+00 -1.58662269e-03 -2.62497199e-04  9.99817350e-01 -4.58060360e-06 
 6.30957344e+00 -1.58662271e-03 -2.94526701e-04  9.99817350e-01 -5.13952177e-06 
 7.07945784e+00 -1.58662273e-03 -3.30464394e-04  9.99817350e-01 -5.76663827e-06 
 7.94328235e+00 -1.58662277e-03 -3.70787149e-04  9.99817350e-01 -6.47027456e-06 
 8.91250938e+00 -1.58662280e-03 -4.16030024e-04  9.99817350e-01 -7.25976746e-06 
 1.00000000e+01 -1.58662285e-03 -4.66793364e-04  9.99817350e-01 -8.14559306e-06 
 1.12201845e+01 -1.58662292e-03 -5.23750769e-04  9.99817350e-01 -9.13950574e-06 
 1.25892541e+01 -1.58662300e-03 -5.87658028e-04  9.99817350e-01 -1.02546941e-05 
 1.41253754e+01 -1.58662310e-03 -6.59363152e-04  9.99817350e-01 -1.15059560e-05 
 1.58489319e+01 -1.58662322e-03 -7.39817625e-04  9.99817350e-01 -1.29098950e-05 
 1.77827941e+01 -1.58662338e-03 -8.30089028e-04  9.99817350e-01 -1.44851404e-05 
 1.99526231e+01 -1.58662358e-03 -9.31375208e-04  9.99817350e-01 -1.62525949e-05 
 2.23872114e+01 -1.58662383e-03 -1.04502017e-03  9.99817350e-01 -1.82357114e-05 
 2.51188643e+01 -1.58662414e-03 -1.17253192e-03  9.99817350e-01 -2.04608047e-05 
 2.81838293e+01 -1.58662454e-03 -1.31560245e-03  9.99817350e-01 -2.29574004e-05 
 3.16227766e+01 -1.58662504e-03 -1.47613023e-03  9.99817349e-01 -2.57586270e-05 
 3.54813389e+01 -1.58662567e-03 -1.65624536e-03  9.99817349e-01 -2.89016548e-05 
 3.98107171e+01 -1.58662646e-03 -1.85833785e-03  9.99817349e-01 -3.24281900e-05 
 4.46683592e+01 -1.58662745e-03 -2.08508937e-03  9.99817349e-01 -3.63850277e-05 
 5.01187234e+01 -1.58662871e-03 -2.33950875e-03  9.99817348e-01 -4.08246725e-05 
 5.62341325e+01 -1.58663029e-03 -2.62497199e-03  9.99817348e-01 -4.58060359e-05 
 6.30957344e+01 -1.58663227e-03 -2.94526701e-03  9.99817348e-01 -5.13952176e-05 
 7.07945784e+01 -1.58663478e-03 -3.30464394e-03  9.99817347e-01 -5.76663826e-05 
 7.94328235e+01 -1.58663793e-03 -3.70787148e-03  9.99817346e-01 -6.47027454e-05 
 8.91250938e+01 -1.58664189e-03 -4.16030023e-03  9.99817345e-01 -7.25976743e-05 
 1.00000000e+02 -1.58664688e-03 -4.66793363e-03  9.99817344e-01 -8.14559302e-05 
 1.12201845e+02 -1.58665317e-03 -5.23750768e-03  9.99817342e-01 -9.13950568e-05 
 1.25892541e+02 -1.58666108e-03 -5.87658027e-03  9.99817340e-01 -1.02546940e-04 
 1.41253754e+02 -1.58667104e-03 -6.59363150e-03  9.99817338e-01 -1.15059559e-04 
 1.58489319e+02 -1.58668358e-03 -7.39817622e-03  9.99817335e-01 -1.29098948e-04 
 1.77827941e+02 -1.58669937e-03 -8.30089024e-03  9.99817331e-01 -1.44851402e-04 
 1.99526231e+02 -1.58671924e-03 -9.31375202e-03  9.99817326e-01 -1.62525945e-04 
 2.23872114e+02 -1.58674426e-03 -1.04502016e-02  9.99817319e-01 -1.82357109e-04 
 2.51188643e+02 -1.58677576e-03 -1.17253190e-02  9.99817311e-01 -2.04608040e-04 
 2.81838293e+02 -1.58681541e-03 -1.31560243e-02  9.99817301e-01 -2.29573994e-04 
 3.16227766e+02 -1.58686533e-03 -1.47613020e-02  9.99817289e-01 -2.57586255e-04 
 3.54813389e+02 -1.58692817e-03 -1.65624532e-02  9.99817273e-01 -2.89016528e-04 
 3.98107171e+02 -1.58700729e-03 -1.85833780e-02  9.99817253e-01 -3.24281872e-04 
 4.46683592e+02 -1.58710689e-03 -2.08508930e-02  9.99817228e-01 -3.63850236e-04 
 5.01187234e+02 -1.58723229e-03 -2.33950865e-02  9.99817196e-01 -4.08246668e-04 
 5.62341325e+02 -1.58739015e-03 -2.62497185e-02  9.99817157e-01 -4.58060279e-04 
 6.30957344e+02 -1.58758888e-03 -2.94526681e-02  9.99817107e-01 -5.13952062e-04 
 7.07945784e+02 -1.58783907e-03 -3.30464366e-02  9.99817044e-01 -5.76663665e-04 
 7.94328235e+02 -1.58815404e-03 -3.70787109e-02  9.99816964e-01 -6.47027227e-04 
 8.91250938e+02 -1.58855041e-03 -4.16029967e-02  9.99816865e-01 -7.25976423e-04 
 1.00000000e+03 -1.58904960e-03 -4.66793285e-02  9.99816739e-01 -8.14558850e-04 
 1.12201845e+03 -1.58967806e-03 -5.23750657e-02  9.99816581e-01 -9.13949929e-04 
 1.25892541e+03 -1.59046923e-03 -5.87657870e-02  9.99816381e-01 -1.02546850e-03 
 1.41253754e+03 -1.59146526e-03 -6.59362929e-02  9.99816131e-01 -1.15059432e-03 
 1.58489319e+03 -1.59271902e-03 -7.39817309e-02  9.99815815e-01 -1.29098768e-03 
 1.77827941e+03 -1.59429762e-03 -8.30088581e-02  9.99815417e-01 -1.44851148e-03 
 1.99526231e+03 -1.59628479e-03 -9.31374577e-02  9.99814917e-01 -1.62525586e-03 
 2.23872114e+03 -1.59878670e-03 -1.04501928e-01  9.99814287e-01 -1.82356602e-03 
 2.51188643e+03 -1.60193609e-03 -1.17253066e-01  9.99813494e-01 -2.04607324e-03 
 2.81838293e+03 -1.60590134e-03 -1.31560067e-01  9.99812495e-01 -2.29572983e-03 
 3.16227766e+03 -1.61089296e-03 -1.47612771e-01  9.99811238e-01 -2.57584827e-03 
 3.54813389e+03 -1.61717712e-03 -1.65624181e-01  9.99809656e-01 -2.89014510e-03 
 3.98107171e+03 -1.62508848e-03 -1.85833284e-01  9.99807663e-01 -3.24279021e-03 
 4.46683592e+03 -1.63504819e-03 -2.08508228e-01  9.99805155e-01 -3.63846210e-03 
 5.01187234e+03 -1.64758682e-03 -2.33949874e-01  9.99801998e-01 -4.08240980e-03 
 5.62341325e+03 -1.66337177e-03 -2.62495786e-01  9.99798023e-01 -4.58052244e-03 
 6.30957344e+03 -1.68324397e-03 -2.94524706e-01  9.99793019e-01 -5.13940714e-03 
 7.07945784e+03 -1.70826134e-03 -3.30461575e-01  9.99786719e-01 -5.76647635e-03 
 7.94328235e+03 -1.73975611e-03 -3.70783167e-01  9.99778788e-01 -6.47004584e-03 
 8.91250938e+03 -1.77940541e-03 -4.16024398e-01  9.99768804e-01 -7.25944439e-03 
 1.00000000e+04 -1.82932039e-03 -4.66785418e-01  9.99756235e-01 -8.14513671e-03 
 1.12201845e+04 -1.89215875e-03 -5.23739545e-01  9.99740412e-01 -9.13886114e-03 
 1.25892541e+04 -1.97126638e-03 -5.87642175e-01  9.99720492e-01 -1.02537836e-02 
 1.41253754e+04 -2.07085489e-03 -6.59340759e-01  9.99695416e-01 -1.15046699e-02 
 1.58489319e+04 -2.19622588e-03 -7.39785993e-01  9.99663848e-01 -1.29080784e-02 
 1.77827941e+04 -2.35405408e-03 -8.30044349e-01  9.99624110e-01 -1.44825745e-02 
 1.99526231e+04 -2.55273958e-03 -9.31312099e-01  9.99574086e-01 -1.62489705e-02 
 2.23872114e+04 -2.80285687e-03 -1.04493103e+00  9.99511117e-01 -1.82305922e-02 
 2.51188643e+04 -3.11771539e-03 -1.17240601e+00  9.99431853e-01 -2.04535741e-02 
 2.81838293e+04 -3.51406703e-03 -1.31542461e+00  9.99332082e-01 -2.29471880e-02 
 3.16227766e+04 -4.01299259e-03 -1.47587903e+00  9.99206504e-01 -2.57442031e-02 
 3.54813389e+04 -4.64102165e-03 -1.65589057e+00  9.99048451e-01 -2.88812835e-02 
 3.98107171e+04 -5.43153488e-03 -1.85783676e+00  9.98849539e-01 -3.23994200e-02 
 4.46683592e+04 -6.42652846e-03 -2.08438164e+00  9.98599227e-01 -3.63443982e-02 
 5.01187234e+04 -7.67882865e-03 -2.33850923e+00  9.98284265e-01 -4.07672983e-02 
 5.62341325e+04 -9.25487068e-03 -2.62356045e+00  9.97888009e-01 -4.57250221e-02 
 6.30957344e+04 -1.12381809e-02 -2.94327370e+00  9.97389560e-01 -5.12808346e-02 
 7.07945784e+04 -1.37337396e-02 -3.30182928e+00  9.96762695e-01 -5.75049049e-02 
 7.94328235e+04 -1.68734343e-02 -3.70389740e+00  9.95974540e-01 -6.44748166e-02 
 8.91250938e+04 -2.08228664e-02 -4.15468974e+00  9.94983926e-01 -7.22760082e-02 
 1.00000000e+05 -2.57898306e-02 -4.66001404e+00  9.93739368e-01 -8.10020829e-02 
 1.12201845e+05 -3.20348405e-02 -5.22633059e+00  9.92176593e-01 -9.07548994e-02 
 1.25892541e+05 -3.98841572e-02 -5.86080932e+00  9.90215535e-01 -1.01644323e-01 
 1.41253754e+05 -4.97458302e-02 -6.57138477e+00  9.87756733e-01 -1.13787463e-01 
 1.58489319e+05 -6.21293401e-02 -7.36680560e+00  9.84677063e-01 -1.27307168e-01 
 1.77827941e+05 -7.76694600e-02 -8.25667317e+00  9.80824776e-01 -1.42329463e-01 
 1.99526231e+05 -9.71549625e-02 -9.25146190e+00  9.76013896e-01 -1.58979520e-01 
 2.23872114e+05 -1.21562707e-01 -1.03625114e+01  9.70018115e-01 -1.77375656e-01 
 2.51188643e+05 -1.52097426e-01 -1.16019764e+01  9.62564536e-01 -1.97620726e-01 
 2.81838293e+05 -1.90237101e-01 -1.29827181e+01  9.53327892e-01 -2.19790233e-01 
 3.16227766e+05 -2.37783074e-01 -1.45181135e+01  9.41926265e-01 -2.43916418e-01 
 3.54813389e+05 -2.96912846e-01 -1.62217583e+01  9.27919885e-01 -2.69967814e-01 
 3.98107171e+05 -3.70231831e-01 -1.81070367e+01  9.10815223e-01 -2.97824119e-01 
 4.46683592e+05 -4.60818023e-01 -2.01865286e+01  8.90077255e-01 -3.27247080e-01 
 5.01187234e+05 -5.72250498e-01 -2.24712399e+01  8.65153272e-01 -3.57849544e-01 
 5.62341325e+05 -7.08609965e-01 -2.49696543e+01  8.35511434e-01 -3.89066777e-01 
 6.30957344e+05 -8.74436653e-01 -2.76866405e+01  8.00696090e-01 -4.20136718e-01 
 7.07945784e+05 -1.07463062e+00 -3.06222956e+01  7.60398914e-01 -4.50098142e-01 
 7.94328235e+05 -1.31428221e+00 -3.37708628e+01  7.14540033e-01 -4.77816820e-01 
 8.91250938e+05 -1.59842882e+00 -3.71199207e+01  6.63346917e-01 -5.02047980e-01 
 1.00000000e+06 -1.93174792e+00 -4.06500755e+01  6.07412853e-01 -5.21537328e-01 
 1.12201845e+06 -2.31821475e+00 -4.43353702e+01  5.47714299e-01 -5.35152505e-01 
 1.25892541e+06 -2.76077049e+00 -4.81445428e+01  4.85570701e-01 -5.42024518e-01 
 1.41253754e+06 -3.26105651e+00 -5.20431078e+01  4.22542703e-01 -5.41669531e-01 
 1.58489319e+06 -3.81926737e+00 -5.59960573e+01  3.60282018e-01 -5.34060780e-01 
 1.77827941e+06 -4.43415383e+00 -5.99708170e+01  3.00362163e-01 -5.19631121e-01 
 1.99526231e+06 -5.10317926e+00 -6.39400383e+01  2.44125772e-01 -4.99205377e-01 
 2.23872114e+06 -5.82280005e+00 -6.78838595e+01  1.92578576e-01 -4.73880833e-01 
 2.51188643e+06 -6.58882248e+00 -7.17914261e+01  1.46344711e-01 -4.44885583e-01 
 2.81838293e+06 -7.39678310e+00 -7.56616521e+01  1.05680491e-01 -4.13444746e-01 
 3.16227766e+06 -8.24231175e+00 -7.95033643e+01  7.05309676e-02 -3.80675793e-01 
 3.54813389e+06 -9.12145723e+00 -8.33350784e+01  4.06087543e-02 -3.47521892e-01 
 3.98107171e+06 -1.00309798e+01 -8.71846775e+01  1.54768208e-02 -3.14721575e-01 
 4.46683592e+06 -1.09686415e+01 -9.10892357e+01 -5.37701185e-03 -2.82806537e-01 
 5.01187234e+06 -1.19335537e+01 -9.50951395e+01 -2.24793223e-02 -2.52117415e-01 
 5.62341325e+06 -1.29266801e+01 -9.92584750e+01 -3.63237898e-02 -2.22828678e-01 
 6.30957344e+06 -1.39516428e+01 -1.03645225e+02 -4.73328664e-02 -1.94977107e-01 
 7.07945784e+06 -1.50160362e+01 -1.08329812e+02 -5.58213163e-02 -1.68493936e-01 
 7.94328235e+06 -1.61334096e+01 -1.13388255e+02 -6.19549483e-02 -1.43249994e-01 
 8.91250938e+06 -1.73256051e+01 -1.18878302e+02 -6.57086661e-02 -1.19137655e-01 
 1.00000000e+07 -1.86234139e+01 -1.24796459e+02 -6.68665437e-02 -9.62210378e-02 
 1.12201845e+07 -2.00602261e+01 -1.31017431e+02 -6.51753784e-02 -7.49296435e-02 
 1.25892541e+07 -2.16536822e+01 -1.37281261e+02 -6.07325686e-02 -5.60791892e-02 
 1.41253754e+07 -2.33876952e+01 -1.43340028e+02 -5.43117866e-02 -4.04237646e-02 
 1.58489319e+07 -2.52283549e+01 -1.49200163e+02 -4.70495942e-02 -2.80470053e-02 
 1.77827941e+07 -2.71725841e+01 -1.55138836e+02 -3.97315655e-02 -1.84100557e-02 
 1.99526231e+07 -2.92750619e+01 -1.61426086e+02 -3.25848428e-02 -1.09494978e-02 
 2.23872114e+07 -3.16343834e+01 -1.68060123e+02 -2.56319613e-02 -5.42013609e-03 
 2.51188643e+07 -3.43689628e+01 -1.74648944e+02 -1.90394791e-02 -1.78335257e-03 
 2.81838293e+07 -3.75989047e+01 -1.80321224e+02 -1.31840226e-02  7.39159397e-05 
 3.16227766e+07 -4.14223158e+01 -1.83537006e+02 -8.47336980e-03  5.23746971e-04 
 3.54813389e+07 -4.58434763e+01 -1.81714034e+02 -5.10072400e-03  1.52636388e-04 
 3.98107171e+07 -5.05227513e+01 -1.71121521e+02 -2.94189555e-03 -4.59556500e-04 
 4.46683592e+07 -5.43934570e+01 -1.50526559e+02 -1.66011343e-03 -9.38231397e-04 
 5.01187234e+07 -5.67220653e+01 -1.27688544e+02 -8.91661527e-04 -1.15415206e-03 
 5.62341325e+07 -5.84281947e+01 -1.07857491e+02 -3.67480217e-04 -1.14063340e-03 
 6.30957344e+07 -6.00635137e+01 -8.63972306e+01  6.23809403e-05 -9.90752475e-04 
 7.07945784e+07 -6.07667293e+01 -5.99303406e+01  4.58719069e-04 -7.92298602e-04 
 7.94328235e+07 -5.97536818e+01 -3.59248833e+01  8.33079911e-04 -6.03600844e-04 
 8.91250938e+07 -5.79814795e+01 -2.10515819e+01  1.17740934e-03 -4.53181701e-04 
 1.00000000e+08 -5.63573518e+01 -1.32343850e+01  1.48061571e-03 -3.48212857e-04 
 1.12201845e+08 -5.50965254e+01 -9.28487717e+00  1.73558604e-03 -2.83742753e-04 
 1.25892541e+08 -5.41691983e+01 -7.33260588e+00  1.94076883e-03 -2.49740880e-04 
 1.41253754e+08 -5.35043684e+01 -6.40131588e+00  2.09925614e-03 -2.35518123e-04 
 1.58489319e+08 -5.30371059e+01 -5.97410046e+00  2.21707121e-03 -2.32010363e-04 
 1.77827941e+08 -5.27155865e+01 -5.77105642e+00  2.30151556e-03 -2.32604855e-04 
 1.99526231e+08 -5.24998809e+01 -5.64125339e+00  2.35992121e-03 -2.33107916e-04 
 2.23872114e+08 -5.23596546e+01 -5.50740185e+00  2.39887623e-03 -2.31298289e-04 
 2.51188643e+08 -5.22721464e+01 -5.33522785e+00  2.42385762e-03 -2.26357673e-04 
 2.81838293e+08 -5.22205493e+01 -5.11525107e+00  2.43915526e-03 -2.18343252e-04 
 3.16227766e+08 -5.21927012e+01 -4.85142649e+00  2.44797073e-03 -2.07774711e-04 
 3.54813389e+08 -5.21800081e+01 -4.55399569e+00  2.45259783e-03 -1.95349459e-04 
 3.98107171e+08 -5.21765570e+01 -4.23512011e+00  2.45462212e-03 -1.81768952e-04 
 4.46683592e+08 -5.21783977e+01 -3.90640348e+00  2.45510421e-03 -1.67647878e-04 
 5.01187234e+08 -5.21829766e+01 -3.57767296e+00  2.45473128e-03 -1.53478278e-04 
 5.62341325e+08 -5.21887054e+01 -3.25655525e+00  2.45393388e-03 -1.39626127e-04 
 6.30957344e+08 -5.21946436e+01 -2.94851237e+00  2.45297152e-03 -1.26344529e-04 
 7.07945784e+08 -5.22002721e+01 -2.65710852e+00  2.45199294e-03 -1.13793478e-04 
 7.94328235e+08 -5.22053370e+01 -2.38436286e+00  2.45107716e-03 -1.02060456e-04 
 8.91250938e+08 -5.22097444e+01 -2.13110484e+00  2.45026073e-03 -9.11789996e-05 
 1.00000000e+09 -5.22134918e+01 -1.89729039e+00  2.44955534e-03 -8.11441490e-05 
 1.12201845e+09 -5.22166255e+01 -1.68226295e+00  2.44895892e-03 -7.19246189e-05 
 1.25892541e+09 -5.22192135e+01 -1.48495800e+00  2.44846245e-03 -6.34720086e-05 
 1.41253754e+09 -5.22213301e+01 -1.30405681e+00  2.44805402e-03 -5.57275403e-05 
 1.58489319e+09 -5.22230476e+01 -1.13809779e+00  2.44772113e-03 -4.86268353e-05 
 1.77827941e+09 -5.22244315e+01 -9.85554339e-01  2.44745194e-03 -4.21031849e-05 
 1.99526231e+09 -5.22255391e+01 -8.44886794e-01  2.44723585e-03 -3.60896936e-05 
 2.23872114e+09 -5.22264189e+01 -7.14575148e-01  2.44706372e-03 -3.05206003e-05 
 2.51188643e+09 -5.22271111e+01 -5.93137670e-01  2.44692789e-03 -2.53320047e-05 
 2.81838293e+09 -5.22276485e+01 -4.79139357e-01  2.44682208e-03 -2.04621719e-05 
 3.16227766e+09 -5.22280569e+01 -3.71193187e-01  2.44674124e-03 -1.58515408e-05 
 3.54813389e+09 -5.22283564e+01 -2.67956313e-01  2.44668146e-03 -1.14425273e-05 
 3.98107171e+09 -5.22285619e+01 -1.68122722e-01  2.44663980e-03 -7.17918364e-06 
 4.46683592e+09 -5.22286837e+01 -7.04134368e-02  2.44661417e-03 -3.00675897e-06 
 5.01187234e+09 -5.22287278e+01  2.64350534e-02  2.44660333e-03  1.12881079e-06 
 5.62341325e+09 -5.22286964e+01  1.23683625e-01  2.44660673e-03  5.28146510e-06 
 6.30957344e+09 -5.22285876e+01  2.22604364e-01  2.44662462e-03  9.50562262e-06 
 7.07945784e+09 -5.22283955e+01  3.24495254e-01  2.44665796e-03  1.38568214e-05 
 7.94328235e+09 -5.22281098e+01  4.30695647e-01  2.44670854e-03  1.83923942e-05 
 8.91250938e+09 -5.22277154e+01  5.42602514e-01  2.44677906e-03  2.31721807e-05 
 1.00000000e+10 -5.22271912e+01  6.61687515e-01  2.44687328e-03  2.82592801e-05 
 1.12201845e+10 -5.22265094e+01  7.89514932e-01  2.44699621e-03  3.37208490e-05 
 1.25892541e+10 -5.22256338e+01  9.27760514e-01  2.44715439e-03  3.96289515e-05 
 1.41253754e+10 -5.22245181e+01  1.07823127e+00  2.44735624e-03  4.60614657e-05 
 1.58489319e+10 -5.22231031e+01  1.24288618e+00  2.44761247e-03  5.31030555e-05 
 1.77827941e+10 -5.22213140e+01  1.42385764e+00  2.44793669e-03  6.08462102e-05 
 1.99526231e+10 -5.22190565e+01  1.62347358e+00  2.44834609e-03  6.93923590e-05 
 2.23872114e+10 -5.22162118e+01  1.84427960e+00  2.44886238e-03  7.88530580e-05 
 2.51188643e+10 -5.22126306e+01  2.08906055e+00  2.44951289e-03  8.93512504e-05 
 2.81838293e+10 -5.22081257e+01  2.36086041e+00  2.45033199e-03  1.01022588e-04 
 3.16227766e+10 -5.22024628e+01  2.66299884e+00  2.45136288e-03  1.14016796e-04 
 3.54813389e+10 -5.21953491e+01  2.99908197e+00  2.45265981e-03  1.28499048e-04 
 3.98107171e+10 -5.21864197e+01  3.37300392e+00  2.45429080e-03  1.44651302e-04 
 4.46683592e+10 -5.21752207e+01  3.78893442e+00  2.45634106e-03  1.62673511e-04 
 5.01187234e+10 -5.21611901e+01  4.25128575e+00  2.45891716e-03  1.82784594e-04 
 5.62341325e+10 -5.21436343e+01  4.76465034e+00  2.46215217e-03  2.05222993e-04 
 6.30957344e+10 -5.21217024e+01  5.33369729e+00  2.46621189e-03  2.30246572e-04 
 7.07945784e+10 -5.20943571e+01  5.96301351e+00  2.47130228e-03  2.58131508e-04 
 7.94328235e+10 -5.20603446e+01  6.65687166e+00  2.47767834e-03  2.89169714e-04 
 8.91250938e+10 -5.20181662e+01  7.41890511e+00  2.48565437e-03  3.23664166e-04 
 1.00000000e+11 -5.19660542e+01  8.25166992e+00  2.49561560e-03  3.61921306e-04 
 1.12201845e+11 -5.19019607e+01  9.15607758e+00  2.50803078e-03  4.04239523e-04 
 1.25892541e+11 -5.18235660e+01  1.01306936e+01  2.52346519e-03  4.50892471e-04 
 1.41253754e+11 -5.17283196e+01  1.11709190e+01  2.54259251e-03  5.02105895e-04 
 1.58489319e+11 -5.16135268e+01  1.22681070e+01  2.56620366e-03  5.58026712e-04 
 1.77827941e+11 -5.14764930e+01  1.34087201e+01  2.59520932e-03  6.18683479e-04 
 1.99526231e+11 -5.13147337e+01  1.45736900e+01  2.63063182e-03  6.83938483e-04 
 2.23872114e+11 -5.11262479e+01  1.57382013e+01  2.67358108e-03  7.53433530e-04 
 2.51188643e+11 -5.09098329e+01  1.68721394e+01  2.72520886e-03  8.26534489e-04 
 2.81838293e+11 -5.06653993e+01  1.79413998e+01  2.78663721e-03  9.02283389e-04 
 3.16227766e+11 -5.03942226e+01  1.89101166e+01  2.85886027e-03  9.79370639e-04 
 3.54813389e+11 -5.00990624e+01  1.97436428e+01  2.94262575e-03  1.05614203e-03 
 3.98107171e+11 -4.97840934e+01  2.04118538e+01  3.03831064e-03  1.13065318e-03 
 4.46683592e+11 -4.94546311e+01  2.08921605e+01  3.14581423e-03  1.20077648e-03 
 5.01187234e+11 -4.91166867e+01  2.11715968e+01  3.26449406e-03  1.26435238e-03 
 5.62341325e+11 -4.87764361e+01  2.12475473e+01  3.39316519e-03  1.31936256e-03 
 6.30957344e+11 -4.84397091e+01  2.11270340e+01  3.53016848e-03  1.36409265e-03 
 7.07945784e+11 -4.81115919e+01  2.08248503e+01  3.67349488e-03  1.39725327e-03 
 7.94328235e+11 -4.77961972e+01  2.03610800e+01  3.82093819e-03  1.41804045e-03 
 8.91250938e+11 -4.74966053e+01  1.97585813e+01  3.97024425e-03  1.42613466e-03 
 1.00000000e+12 -4.72149389e+01  1.90408886e+01  4.11923225e-03  1.42165440e-03 
